
T34C4 000:464 SEGGER J-Link V4.80g Log File (0001ms, 0269ms total)
T34C4 000:464 DLL Compiled: Feb 13 2014 20:50:02 (0001ms, 0269ms total)
T34C4 000:464 Logging started @ 2019-04-24 19:48 (0001ms, 0269ms total)
T34C4 000:465 JLINK_SetWarnOutHandler(...) (0000ms, 0269ms total)
T34C4 000:465 JLINK_OpenEx(...)
Firmware: J-Link ARM V8 compiled Jan 31 2018 18:34:52
Hardware: V8.00
S/N: 20080643
Feature(s): RDI,FlashDL,FlashBP,JFlash,GDBFull  returns O.K. (0267ms, 0536ms total)
T34C4 000:732 JLINK_SetErrorOutHandler(...) (0000ms, 0536ms total)
T34C4 000:732 JLINK_ExecCommand("ProjectFile = "E:\work\bootload\stm32f4_bootload\stm32f4xx_bootload\MDK-ARM\JLinkSettings.ini"", ...)Device "UNSPECIFIED" selected (0 KB flash, 0 KB RAM).  returns 0x00 (0001ms, 0537ms total)
T34C4 000:733 JLINK_ExecCommand("Device = STM32F407ZGTx", ...)Device "UNSPECIFIED" selected (0 KB flash, 0 KB RAM).  returns 0x00 (0000ms, 0537ms total)
T34C4 000:733 JLINK_ExecCommand("DisableConnectionTimeout", ...)  returns 0x01 (0000ms, 0537ms total)
T34C4 000:733 JLINK_GetHardwareVersion()  returns 0x13880 (0000ms, 0537ms total)
T34C4 000:733 JLINK_GetDLLVersion()  returns 48007 (0000ms, 0537ms total)
T34C4 000:733 JLINK_GetFirmwareString(...) (0000ms, 0537ms total)
T34C4 000:733 JLINK_GetDLLVersion()  returns 48007 (0000ms, 0537ms total)
T34C4 000:733 JLINK_GetCompileDateTime() (0000ms, 0537ms total)
T34C4 000:733 JLINK_GetFirmwareString(...) (0000ms, 0537ms total)
T34C4 000:733 JLINK_GetHardwareVersion()  returns 0x13880 (0000ms, 0537ms total)
T34C4 000:733 JLINK_TIF_Select(JLINKARM_TIF_SWD)  returns 0x00 (0002ms, 0539ms total)
T34C4 000:735 JLINK_SetSpeed(2000) (0000ms, 0539ms total)
T34C4 000:735 JLINK_GetId() >0x108 TIF>Found SWD-DP with ID 0x2BA01477 >0x0D TIF> >0x21 TIF> >0x0D TIF> >0x28 TIF> >0x0D TIF> >0x28 TIF> >0x0D TIF> >0x21 TIF> >0x0D TIF> >0x28 TIF> >0x0D TIF> >0x21 TIF> >0x0D TIF> >0x21 TIF> >0x0D TIF> >0x21 TIF> >0x0D TIF> >0x28 TIF> >0x0D TIF> >0x21 TIF> >0x0D TIF> >0x28 TIF> >0x0D TIF> >0x28 TIF> >0x0D TIF> >0x21 TIF> >0x0D TIF> >0x28 TIF> >0x0D TIF> >0x28 TIF> >0x0D TIF> >0x28 TIF> >0x0D TIF> >0x21 TIF> >0x0D TIF> >0x21 TIF> >0x0D TIF> >0x28 TIF> >0x0D TIF>
 >0x21 TIF> >0x0D TIF> >0x21 TIF>Found Cortex-M4 r0p1, Little endian. >0x0D TIF> >0x28 TIF> -- CPU_WriteMem(4 bytes @ 0xE0002000) -- CPU_ReadMem(4 bytes @ 0xE000EDF0) -- CPU_ReadMem(4 bytes @ 0xE0002000)FPUnit: 6 code (BP) slots and 2 literal slots -- CPU_ReadMem(4 bytes @ 0xE000EDFC) -- CPU_ReadMem(4 bytes @ 0xE0001000) -- CPU_WriteMem(4 bytes @ 0xE0001000) -- CPU_ReadMem(4 bytes @ 0xE00FF010)TPIU fitted. -- CPU_ReadMem(4 bytes @ 0xE00FF014)ETM fitted. -- CPU_ReadMem(4 bytes @ 0xE00FF018) >0x0D TIF>
 >0x21 TIF>  returns 0x2BA01477 (0026ms, 0565ms total)
T34C4 000:761 JLINK_GetDeviceFamily()  returns 14 (0000ms, 0565ms total)
T34C4 000:761 JLINK_ReadMem (0xE00FFFF0, 0x0010 Bytes, ...) -- CPU is running -- CPU_ReadMem(16 bytes @ 0xE00FFFF0) -- Data:  0D 00 00 00 10 00 00 00 05 00 00 00 B1 00 00 00  returns 0x00 (0001ms, 0566ms total)
T34C4 000:762 JLINK_ReadMem (0xE00FFFD0, 0x0020 Bytes, ...) -- CPU is running -- CPU_ReadMem(32 bytes @ 0xE00FFFD0) -- Data:  00 00 00 00 00 00 00 00 00 00 00 00 00 00 00 00 ...  returns 0x00 (0001ms, 0567ms total)
T34C4 000:769 JLINK_ReadMem (0xE00FF000, 0x0018 Bytes, ...) -- CPU is running -- CPU_ReadMem(24 bytes @ 0xE00FF000) -- Data:  03 F0 F0 FF 03 20 F0 FF 03 30 F0 FF 03 10 F0 FF ...  returns 0x00 (0001ms, 0568ms total)
T34C4 000:770 JLINK_ReadMemU32(0xE000ED00, 0x0001 Items, ...) -- CPU is running -- CPU_ReadMem(4 bytes @ 0xE000ED00) -- Data:  41 C2 0F 41  returns 0x01 (0001ms, 0569ms total)
T34C4 000:771 JLINK_ReadMemU32(0xE000EF40, 0x0001 Items, ...) -- CPU is running -- CPU_ReadMem(4 bytes @ 0xE000EF40) -- Data:  21 00 11 10  returns 0x01 (0001ms, 0570ms total)
T34C4 000:772 JLINK_ReadMemU32(0xE000EF44, 0x0001 Items, ...) -- CPU is running -- CPU_ReadMem(4 bytes @ 0xE000EF44) -- Data:  11 00 00 11  returns 0x01 (0000ms, 0570ms total)
T34C4 000:772 JLINK_SetResetType(JLINKARM_RESET_TYPE_NORMAL)  returns JLINKARM_RESET_TYPE_NORMAL (0000ms, 0570ms total)
T34C4 000:772 JLINK_Reset() -- CPU_WriteMem(4 bytes @ 0xE0002000) -- CPU_ReadMem(4 bytes @ 0xE000EDFC) -- CPU_WriteMem(4 bytes @ 0xE000EDFC) -- CPU_ReadMem(4 bytes @ 0xE0001000) (0017ms, 0587ms total)
T34C4 000:789 JLINK_ReadReg(R15 (PC))  returns 0x0800019C (0000ms, 0587ms total)
T34C4 000:789 JLINK_ReadReg(XPSR)  returns 0x01000000 (0000ms, 0587ms total)
T34C4 000:789 JLINK_Halt()  returns 0x00 (0000ms, 0587ms total)
T34C4 000:789 JLINK_IsHalted()  returns TRUE (0000ms, 0587ms total)
T34C4 000:789 JLINK_ReadMemU32(0xE000EDF0, 0x0001 Items, ...) -- CPU_ReadMem(4 bytes @ 0xE000EDF0) -- Data:  03 00 03 00  returns 0x01 (0001ms, 0588ms total)
T34C4 000:790 JLINK_WriteU32(0xE000EDF0, 0xA05F0003) -- CPU_WriteMem(4 bytes @ 0xE000EDF0)  returns 0x00 (0000ms, 0588ms total)
T34C4 000:790 JLINK_WriteU32(0xE000EDFC, 0x01000000) -- CPU_WriteMem(4 bytes @ 0xE000EDFC)  returns 0x00 (0001ms, 0589ms total)
T34C4 000:791 JLINK_GetHWStatus(...)  returns 0x00 (0000ms, 0589ms total)
T34C4 000:791 JLINK_GetNumBPUnits(Type = 0xFFFFFF00)  returns 0x06 (0000ms, 0589ms total)
T34C4 000:792 JLINK_GetNumBPUnits(Type = 0xF0)  returns 0x2000 (0000ms, 0589ms total)
T34C4 000:792 JLINK_GetNumWPUnits()  returns 0x04 (0000ms, 0589ms total)
T34C4 000:792 JLINK_GetSpeed()  returns 0x7D0 (0000ms, 0589ms total)
T34C4 000:792 JLINK_ReadMemU32(0xE000E004, 0x0001 Items, ...) -- CPU_ReadMem(4 bytes @ 0xE000E004) -- Data:  02 00 00 00  returns 0x01 (0000ms, 0589ms total)
T34C4 000:792 JLINK_ReadMemU32(0xE000E004, 0x0001 Items, ...) -- CPU_ReadMem(4 bytes @ 0xE000E004) -- Data:  02 00 00 00  returns 0x01 (0001ms, 0590ms total)
T34C4 000:793 JLINK_WriteMem(0xE0001000, 0x001C Bytes, ...) -- Data:  01 00 00 00 00 00 00 00 00 00 00 00 00 00 00 00 ... -- CPU_WriteMem(28 bytes @ 0xE0001000)  returns 0x1C (0001ms, 0591ms total)
T34C4 000:794 JLINK_ReadMem (0xE0001000, 0x001C Bytes, ...) -- CPU_ReadMem(28 bytes @ 0xE0001000) -- Data:  01 00 00 40 00 00 00 00 00 00 00 00 00 00 00 00 ...  returns 0x00 (0001ms, 0592ms total)
T34C4 000:795 JLINK_ReadReg(R15 (PC))  returns 0x0800019C (0000ms, 0592ms total)
T34C4 000:795 JLINK_ReadReg(XPSR)  returns 0x01000000 (0000ms, 0592ms total)
T34C4 000:802 JLINK_ReadMem (0xE0001004, 0x0004 Bytes, ...) -- CPU_ReadMem(4 bytes @ 0xE0001004) -- Data:  00 00 00 00  returns 0x00 (0001ms, 0593ms total)
T34C4 000:900 JLINK_SetResetType(JLINKARM_RESET_TYPE_NORMAL)  returns JLINKARM_RESET_TYPE_NORMAL (0000ms, 0593ms total)
T34C4 000:900 JLINK_Reset() -- CPU_WriteMem(4 bytes @ 0xE0002000) -- CPU_ReadMem(4 bytes @ 0xE000EDFC) -- CPU_WriteMem(4 bytes @ 0xE000EDFC) -- CPU_ReadMem(4 bytes @ 0xE0001000) (0016ms, 0609ms total)
T34C4 000:916 JLINK_ReadReg(R15 (PC))  returns 0x0800019C (0000ms, 0609ms total)
T34C4 000:916 JLINK_ReadReg(XPSR)  returns 0x01000000 (0000ms, 0609ms total)
T34C4 000:917 JLINK_ReadMem (0x0800019C, 0x003C Bytes, ...) -- CPU_ReadMem(60 bytes @ 0x0800019C) -- Data:  06 48 80 47 06 48 00 47 FE E7 FE E7 FE E7 FE E7 ...  returns 0x00 (0001ms, 0610ms total)
T0E10 003:613 JLINK_SetBPEx(Addr = 0x08002128, Type = 0xFFFFFFF2)  returns 0x00000001 (0000ms, 0610ms total)
T0E10 003:613 JLINK_SetBPEx(Addr = 0x08002152, Type = 0xFFFFFFF2)  returns 0x00000002 (0000ms, 0610ms total)
T0E10 003:613 JLINK_SetBPEx(Addr = 0x0800214C, Type = 0xFFFFFFF2)  returns 0x00000003 (0000ms, 0610ms total)
T0E10 003:614 JLINK_Go() -- CPU_WriteMem(4 bytes @ 0xE0002000) -- CPU_WriteMem(4 bytes @ 0xE0002008) -- CPU_WriteMem(4 bytes @ 0xE0002000) -- CPU_WriteMem(4 bytes @ 0xE000200C) -- CPU_WriteMem(4 bytes @ 0xE0002000) -- CPU_WriteMem(4 bytes @ 0xE0002010) -- CPU_WriteMem(4 bytes @ 0xE0002014) -- CPU_WriteMem(4 bytes @ 0xE0002018) -- CPU_WriteMem(4 bytes @ 0xE000201C) -- CPU_WriteMem(4 bytes @ 0xE0001004) (0007ms, 0617ms total)
T0E10 003:722 JLINK_IsHalted()  returns TRUE (0005ms, 0622ms total)
T0E10 003:727 JLINK_Halt()  returns 0x00 (0000ms, 0617ms total)
T0E10 003:727 JLINK_IsHalted()  returns TRUE (0000ms, 0617ms total)
T0E10 003:727 JLINK_IsHalted()  returns TRUE (0000ms, 0617ms total)
T0E10 003:727 JLINK_IsHalted()  returns TRUE (0000ms, 0617ms total)
T0E10 003:727 JLINK_ReadReg(R15 (PC))  returns 0x08002128 (0000ms, 0617ms total)
T0E10 003:727 JLINK_ReadReg(XPSR)  returns 0x61000000 (0000ms, 0617ms total)
T0E10 003:727 JLINK_ClrBPEx(BPHandle = 0x00000001)  returns 0x00 (0000ms, 0617ms total)
T0E10 003:727 JLINK_ClrBPEx(BPHandle = 0x00000002)  returns 0x00 (0000ms, 0617ms total)
T0E10 003:727 JLINK_ClrBPEx(BPHandle = 0x00000003)  returns 0x00 (0000ms, 0617ms total)
T0E10 003:727 JLINK_ReadMemU32(0xE000ED30, 0x0001 Items, ...) -- CPU_ReadMem(4 bytes @ 0xE000ED30) -- Data:  03 00 00 00  returns 0x01 (0001ms, 0618ms total)
T0E10 003:728 JLINK_ReadMemU32(0xE0001028, 0x0001 Items, ...) -- CPU_ReadMem(4 bytes @ 0xE0001028) -- Data:  00 00 00 00  returns 0x01 (0001ms, 0619ms total)
T0E10 003:729 JLINK_ReadMemU32(0xE0001038, 0x0001 Items, ...) -- CPU_ReadMem(4 bytes @ 0xE0001038) -- Data:  00 02 00 00  returns 0x01 (0000ms, 0619ms total)
T0E10 003:729 JLINK_ReadMemU32(0xE0001048, 0x0001 Items, ...) -- CPU_ReadMem(4 bytes @ 0xE0001048) -- Data:  00 00 00 00  returns 0x01 (0001ms, 0620ms total)
T0E10 003:730 JLINK_ReadMemU32(0xE0001058, 0x0001 Items, ...) -- CPU_ReadMem(4 bytes @ 0xE0001058) -- Data:  00 00 00 00  returns 0x01 (0001ms, 0621ms total)
T0E10 003:731 JLINK_ReadReg(R0)  returns 0x08002129 (0000ms, 0621ms total)
T0E10 003:731 JLINK_ReadReg(R1)  returns 0x20000490 (0000ms, 0621ms total)
T0E10 003:731 JLINK_ReadReg(R2)  returns 0x00000000 (0000ms, 0621ms total)
T0E10 003:731 JLINK_ReadReg(R3)  returns 0x08001D59 (0000ms, 0621ms total)
T0E10 003:731 JLINK_ReadReg(R4)  returns 0x080023BC (0000ms, 0621ms total)
T0E10 003:731 JLINK_ReadReg(R5)  returns 0x080023BC (0000ms, 0621ms total)
T0E10 003:731 JLINK_ReadReg(R6)  returns 0x00000000 (0000ms, 0621ms total)
T0E10 003:731 JLINK_ReadReg(R7)  returns 0x00000000 (0000ms, 0621ms total)
T0E10 003:731 JLINK_ReadReg(R8)  returns 0x00000000 (0000ms, 0621ms total)
T0E10 003:731 JLINK_ReadReg(R9)  returns 0x00000000 (0000ms, 0621ms total)
T0E10 003:731 JLINK_ReadReg(R10)  returns 0x00000000 (0000ms, 0621ms total)
T0E10 003:731 JLINK_ReadReg(R11)  returns 0x00000000 (0000ms, 0621ms total)
T0E10 003:731 JLINK_ReadReg(R12)  returns 0x00000000 (0001ms, 0622ms total)
T0E10 003:732 JLINK_ReadReg(R13 (SP))  returns 0x20000490 (0000ms, 0622ms total)
T0E10 003:732 JLINK_ReadReg(R14)  returns 0x080002A1 (0000ms, 0622ms total)
T0E10 003:732 JLINK_ReadReg(R15 (PC))  returns 0x08002128 (0000ms, 0622ms total)
T0E10 003:732 JLINK_ReadReg(XPSR)  returns 0x61000000 (0000ms, 0622ms total)
T0E10 003:732 JLINK_ReadReg(MSP)  returns 0x20000490 (0000ms, 0622ms total)
T0E10 003:732 JLINK_ReadReg(PSP)  returns 0x00000000 (0000ms, 0622ms total)
T0E10 003:732 JLINK_ReadReg(CFBP)  returns 0x00000000 (0000ms, 0622ms total)
T0E10 003:732 JLINK_ReadReg(FPSCR)  returns 0x00000000 (0008ms, 0630ms total)
T0E10 003:740 JLINK_ReadReg(FPS0)  returns 0x00000000 (0000ms, 0630ms total)
T0E10 003:740 JLINK_ReadReg(FPS1)  returns 0x00000000 (0000ms, 0630ms total)
T0E10 003:740 JLINK_ReadReg(FPS2)  returns 0x00000000 (0000ms, 0630ms total)
T0E10 003:740 JLINK_ReadReg(FPS3)  returns 0x00000000 (0000ms, 0630ms total)
T0E10 003:740 JLINK_ReadReg(FPS4)  returns 0x00000000 (0000ms, 0630ms total)
T0E10 003:740 JLINK_ReadReg(FPS5)  returns 0x00000000 (0000ms, 0630ms total)
T0E10 003:740 JLINK_ReadReg(FPS6)  returns 0x00000000 (0000ms, 0630ms total)
T0E10 003:740 JLINK_ReadReg(FPS7)  returns 0x00000000 (0000ms, 0630ms total)
T0E10 003:740 JLINK_ReadReg(FPS8)  returns 0x00000000 (0000ms, 0630ms total)
T0E10 003:740 JLINK_ReadReg(FPS9)  returns 0x00000000 (0000ms, 0630ms total)
T0E10 003:740 JLINK_ReadReg(FPS10)  returns 0x00000000 (0000ms, 0630ms total)
T0E10 003:740 JLINK_ReadReg(FPS11)  returns 0x00000000 (0000ms, 0630ms total)
T0E10 003:740 JLINK_ReadReg(FPS12)  returns 0x00000000 (0000ms, 0630ms total)
T0E10 003:740 JLINK_ReadReg(FPS13)  returns 0x00000000 (0000ms, 0630ms total)
T0E10 003:740 JLINK_ReadReg(FPS14)  returns 0x00000000 (0000ms, 0630ms total)
T0E10 003:740 JLINK_ReadReg(FPS15)  returns 0x00000000 (0000ms, 0630ms total)
T0E10 003:740 JLINK_ReadReg(FPS16)  returns 0x00000000 (0000ms, 0630ms total)
T0E10 003:740 JLINK_ReadReg(FPS17)  returns 0x00000000 (0000ms, 0630ms total)
T0E10 003:740 JLINK_ReadReg(FPS18)  returns 0x00000000 (0000ms, 0630ms total)
T0E10 003:740 JLINK_ReadReg(FPS19)  returns 0x00000000 (0000ms, 0630ms total)
T0E10 003:740 JLINK_ReadReg(FPS20)  returns 0x00000000 (0001ms, 0631ms total)
T0E10 003:741 JLINK_ReadReg(FPS31)  returns 0x00000000 (0000ms, 0631ms total)
T0E10 003:741 JLINK_ReadReg(FPS7)  returns 0x00000000 (0000ms, 0631ms total)
T0E10 003:741 JLINK_ReadReg(FPS8)  returns 0x00000000 (0000ms, 0631ms total)
T0E10 003:741 JLINK_ReadReg(FPS9)  returns 0x00000000 (0000ms, 0631ms total)
T0E10 003:741 JLINK_ReadReg(FPS10)  returns 0x00000000 (0000ms, 0631ms total)
T0E10 003:741 JLINK_ReadReg(FPS11)  returns 0x00000000 (0000ms, 0631ms total)
T0E10 003:741 JLINK_ReadReg(FPS12)  returns 0x00000000 (0000ms, 0631ms total)
T0E10 003:741 JLINK_ReadReg(FPS13)  returns 0x00000000 (0000ms, 0631ms total)
T0E10 003:741 JLINK_ReadReg(FPS14)  returns 0x00000000 (0000ms, 0631ms total)
T0E10 003:741 JLINK_ReadReg(FPS15)  returns 0x00000000 (0000ms, 0631ms total)
T0E10 003:741 JLINK_ReadReg(FPS16)  returns 0x00000000 (0000ms, 0631ms total)
T34C4 003:742 JLINK_ReadMem (0x00000000, 0x0001 Bytes, ...) -- CPU_ReadMem(1 bytes @ 0x00000000) -- Data:  90  returns 0x00 (0001ms, 0632ms total)
T34C4 003:744 JLINK_ReadMemU32(0xE0001004, 0x0001 Items, ...) -- CPU_ReadMem(4 bytes @ 0xE0001004) -- Data:  70 07 00 00  returns 0x01 (0000ms, 0632ms total)
T0E10 006:168 JLINK_ReadMem (0x08002128, 0x003C Bytes, ...) -- CPU_ReadMem(128 bytes @ 0x08002100) -- Updating DA cache (128 bytes @ 0x08002100) -- Read from DA cache (60 bytes @ 0x08002128) -- Data:  00 24 FE F7 FB FC FF F7 65 FB FF F7 EB FA FF F7 ...  returns 0x00 (0002ms, 0634ms total)
T0E10 006:170 JLINK_Step() -- Read from DA cache (2 bytes @ 0x08002128) -- Simulated  returns 0x00 (0001ms, 0635ms total)
T0E10 006:171 JLINK_ReadReg(R15 (PC))  returns 0x0800212A (0000ms, 0635ms total)
T0E10 006:171 JLINK_ReadReg(XPSR)  returns 0x61000000 (0000ms, 0635ms total)
T0E10 006:171 JLINK_ReadReg(R0)  returns 0x08002129 (0000ms, 0635ms total)
T0E10 006:171 JLINK_ReadReg(R1)  returns 0x20000490 (0000ms, 0635ms total)
T0E10 006:171 JLINK_ReadReg(R2)  returns 0x00000000 (0000ms, 0635ms total)
T0E10 006:171 JLINK_ReadReg(R3)  returns 0x08001D59 (0000ms, 0635ms total)
T0E10 006:171 JLINK_ReadReg(R4)  returns 0x00000000 (0000ms, 0635ms total)
T0E10 006:171 JLINK_ReadReg(R5)  returns 0x080023BC (0000ms, 0635ms total)
T0E10 006:171 JLINK_ReadReg(R6)  returns 0x00000000 (0001ms, 0636ms total)
T0E10 006:172 JLINK_ReadReg(R7)  returns 0x00000000 (0000ms, 0636ms total)
T0E10 006:172 JLINK_ReadReg(R8)  returns 0x00000000 (0000ms, 0636ms total)
T0E10 006:172 JLINK_ReadReg(R9)  returns 0x00000000 (0000ms, 0636ms total)
T0E10 006:172 JLINK_ReadReg(R10)  returns 0x00000000 (0000ms, 0636ms total)
T0E10 006:172 JLINK_ReadReg(R11)  returns 0x00000000 (0000ms, 0636ms total)
T0E10 006:172 JLINK_ReadReg(R12)  returns 0x00000000 (0000ms, 0636ms total)
T0E10 006:172 JLINK_ReadReg(R13 (SP))  returns 0x20000490 (0000ms, 0636ms total)
T0E10 006:172 JLINK_ReadReg(R14)  returns 0x080002A1 (0000ms, 0636ms total)
T0E10 006:172 JLINK_ReadReg(R15 (PC))  returns 0x0800212A (0000ms, 0636ms total)
T0E10 006:172 JLINK_ReadReg(XPSR)  returns 0x61000000 (0000ms, 0636ms total)
T0E10 006:172 JLINK_ReadReg(MSP)  returns 0x20000490 (0000ms, 0636ms total)
T0E10 006:172 JLINK_ReadReg(PSP)  returns 0x00000000 (0000ms, 0636ms total)
T0E10 006:172 JLINK_ReadReg(CFBP)  returns 0x00000000 (0000ms, 0636ms total)
T0E10 006:172 JLINK_ReadReg(FPSCR)  returns 0x00000000 (0000ms, 0636ms total)
T0E10 006:172 JLINK_ReadReg(FPS0)  returns 0x00000000 (0000ms, 0636ms total)
T0E10 006:172 JLINK_ReadReg(FPS1)  returns 0x00000000 (0000ms, 0636ms total)
T0E10 006:172 JLINK_ReadReg(FPS2)  returns 0x00000000 (0000ms, 0636ms total)
T0E10 006:172 JLINK_ReadReg(FPS3)  returns 0x00000000 (0000ms, 0636ms total)
T0E10 006:172 JLINK_ReadReg(FPS4)  returns 0x00000000 (0000ms, 0636ms total)
T0E10 006:172 JLINK_ReadReg(FPS5)  returns 0x00000000 (0000ms, 0636ms total)
T0E10 006:172 JLINK_ReadReg(FPS6)  returns 0x00000000 (0000ms, 0636ms total)
T0E10 006:172 JLINK_ReadReg(FPS7)  returns 0x00000000 (0000ms, 0636ms total)
T0E10 006:172 JLINK_ReadReg(FPS8)  returns 0x00000000 (0000ms, 0636ms total)
T0E10 006:172 JLINK_ReadReg(FPS9)  returns 0x00000000 (0000ms, 0636ms total)
T0E10 006:172 JLINK_ReadReg(FPS10)  returns 0x00000000 (0000ms, 0636ms total)
T0E10 006:172 JLINK_ReadReg(FPS11)  returns 0x00000000 (0001ms, 0637ms total)
T0E10 006:173 JLINK_ReadReg(FPS12)  returns 0x00000000 (0000ms, 0637ms total)
T0E10 006:173 JLINK_ReadReg(FPS13)  returns 0x00000000 (0000ms, 0637ms total)
T0E10 006:173 JLINK_ReadReg(FPS14)  returns 0x00000000 (0000ms, 0637ms total)
T0E10 006:173 JLINK_ReadReg(FPS15)  returns 0x00000000 (0000ms, 0637ms total)
T0E10 006:173 JLINK_ReadReg(FPS16)  returns 0x00000000 (0000ms, 0637ms total)
T0E10 006:173 JLINK_ReadReg(FPS17)  returns 0x00000000 (0000ms, 0637ms total)
T0E10 006:173 JLINK_ReadReg(FPS18)  returns 0x00000000 (0000ms, 0637ms total)
T0E10 006:173 JLINK_ReadReg(FPS19)  returns 0x00000000 (0000ms, 0637ms total)
T0E10 006:173 JLINK_ReadReg(FPS20)  returns 0x00000000 (0000ms, 0637ms total)
T0E10 006:173 JLINK_ReadReg(FPS31)  returns 0x00000000 (0000ms, 0637ms total)
T0E10 006:173 JLINK_ReadReg(FPS7)  returns 0x00000000 (0000ms, 0637ms total)
T0E10 006:173 JLINK_ReadReg(FPS8)  returns 0x00000000 (0000ms, 0637ms total)
T0E10 006:173 JLINK_ReadReg(FPS9)  returns 0x00000000 (0000ms, 0637ms total)
T0E10 006:173 JLINK_ReadReg(FPS10)  returns 0x00000000 (0000ms, 0637ms total)
T0E10 006:173 JLINK_ReadReg(FPS11)  returns 0x00000000 (0000ms, 0637ms total)
T0E10 006:173 JLINK_ReadReg(FPS12)  returns 0x00000000 (0000ms, 0637ms total)
T0E10 006:173 JLINK_ReadReg(FPS13)  returns 0x00000000 (0000ms, 0637ms total)
T0E10 006:173 JLINK_ReadReg(FPS14)  returns 0x00000000 (0000ms, 0637ms total)
T0E10 006:173 JLINK_ReadReg(FPS15)  returns 0x00000000 (0000ms, 0637ms total)
T0E10 006:173 JLINK_ReadReg(FPS16)  returns 0x00000000 (0000ms, 0637ms total)
T34C4 006:176 JLINK_ReadMemU32(0xE0001004, 0x0001 Items, ...) -- Data:  70 07 00 00  returns 0x01 (0000ms, 0637ms total)
T34C4 008:523 JLINK_ReadMem (0x20000018, 0x0004 Bytes, ...) -- CPU_ReadMem(4 bytes @ 0x20000018) -- Data:  00 00 00 00  returns 0x00 (0001ms, 0638ms total)
T34C4 008:524 JLINK_ReadMem (0x2000001C, 0x0004 Bytes, ...) -- CPU_ReadMem(4 bytes @ 0x2000001C) -- Data:  00 00 00 00  returns 0x00 (0001ms, 0639ms total)
T34C4 008:525 JLINK_ReadMem (0x20000020, 0x0004 Bytes, ...) -- CPU_ReadMem(4 bytes @ 0x20000020) -- Data:  00 00 00 00  returns 0x00 (0001ms, 0640ms total)
T34C4 008:526 JLINK_ReadMem (0x20000024, 0x0004 Bytes, ...) -- CPU_ReadMem(4 bytes @ 0x20000024) -- Data:  00 00 00 00  returns 0x00 (0000ms, 0640ms total)
T34C4 008:526 JLINK_ReadMem (0x20000028, 0x0004 Bytes, ...) -- CPU_ReadMem(4 bytes @ 0x20000028) -- Data:  00 00 00 00  returns 0x00 (0001ms, 0641ms total)
T0E10 009:833 JLINK_ReadMem (0x0800212A, 0x0002 Bytes, ...) -- Read from DA cache (2 bytes @ 0x0800212A) -- Data:  FE F7  returns 0x00 (0001ms, 0642ms total)
T0E10 009:834 JLINK_ReadMem (0x0800212C, 0x003C Bytes, ...) -- Read from DA cache (60 bytes @ 0x0800212C) -- Data:  FB FC FF F7 65 FB FF F7 EB FA FF F7 FD FA 31 A0 ...  returns 0x00 (0000ms, 0642ms total)
T0E10 009:834 JLINK_SetBPEx(Addr = 0x0800212E, Type = 0xFFFFFFF2)  returns 0x00000004 (0000ms, 0642ms total)
T0E10 009:834 JLINK_SetBPEx(Addr = 0x08002152, Type = 0xFFFFFFF2)  returns 0x00000005 (0000ms, 0642ms total)
T0E10 009:834 JLINK_SetBPEx(Addr = 0x0800214C, Type = 0xFFFFFFF2)  returns 0x00000006 (0000ms, 0642ms total)
T0E10 009:834 JLINK_Go() -- CPU_WriteMem(4 bytes @ 0xE0002000) -- CPU_WriteMem(4 bytes @ 0xE0002000) -- CPU_WriteMem(4 bytes @ 0xE0002000) -- CPU_WriteMem(4 bytes @ 0xE0002008) -- CPU_WriteMem(4 bytes @ 0xE0001004) (0005ms, 0647ms total)
T0E10 009:940 JLINK_IsHalted()  returns TRUE (0005ms, 0652ms total)
T0E10 009:945 JLINK_Halt()  returns 0x00 (0000ms, 0647ms total)
T0E10 009:945 JLINK_IsHalted()  returns TRUE (0000ms, 0647ms total)
T0E10 009:945 JLINK_IsHalted()  returns TRUE (0000ms, 0647ms total)
T0E10 009:945 JLINK_IsHalted()  returns TRUE (0000ms, 0647ms total)
T0E10 009:945 JLINK_ReadReg(R15 (PC))  returns 0x0800212E (0000ms, 0647ms total)
T0E10 009:945 JLINK_ReadReg(XPSR)  returns 0x61000000 (0000ms, 0647ms total)
T0E10 009:945 JLINK_ClrBPEx(BPHandle = 0x00000004)  returns 0x00 (0000ms, 0647ms total)
T0E10 009:945 JLINK_ClrBPEx(BPHandle = 0x00000005)  returns 0x00 (0000ms, 0647ms total)
T0E10 009:945 JLINK_ClrBPEx(BPHandle = 0x00000006)  returns 0x00 (0000ms, 0647ms total)
T0E10 009:945 JLINK_ReadMemU32(0xE000ED30, 0x0001 Items, ...) -- CPU_ReadMem(4 bytes @ 0xE000ED30) -- Data:  03 00 00 00  returns 0x01 (0001ms, 0648ms total)
T0E10 009:946 JLINK_ReadMemU32(0xE0001028, 0x0001 Items, ...) -- CPU_ReadMem(4 bytes @ 0xE0001028) -- Data:  00 00 00 00  returns 0x01 (0001ms, 0649ms total)
T0E10 009:947 JLINK_ReadMemU32(0xE0001038, 0x0001 Items, ...) -- CPU_ReadMem(4 bytes @ 0xE0001038) -- Data:  00 02 00 00  returns 0x01 (0001ms, 0650ms total)
T0E10 009:948 JLINK_ReadMemU32(0xE0001048, 0x0001 Items, ...) -- CPU_ReadMem(4 bytes @ 0xE0001048) -- Data:  00 00 00 00  returns 0x01 (0000ms, 0650ms total)
T0E10 009:948 JLINK_ReadMemU32(0xE0001058, 0x0001 Items, ...) -- CPU_ReadMem(4 bytes @ 0xE0001058) -- Data:  00 00 00 00  returns 0x01 (0001ms, 0651ms total)
T0E10 009:949 JLINK_ReadReg(R0)  returns 0x00000000 (0000ms, 0651ms total)
T0E10 009:949 JLINK_ReadReg(R1)  returns 0x40023840 (0000ms, 0651ms total)
T0E10 009:949 JLINK_ReadReg(R2)  returns 0xE000ED18 (0000ms, 0651ms total)
T0E10 009:949 JLINK_ReadReg(R3)  returns 0x10000000 (0000ms, 0651ms total)
T0E10 009:949 JLINK_ReadReg(R4)  returns 0x00000000 (0000ms, 0651ms total)
T0E10 009:949 JLINK_ReadReg(R5)  returns 0x080023BC (0000ms, 0651ms total)
T0E10 009:949 JLINK_ReadReg(R6)  returns 0x00000000 (0000ms, 0651ms total)
T0E10 009:949 JLINK_ReadReg(R7)  returns 0x00000000 (0000ms, 0651ms total)
T0E10 009:949 JLINK_ReadReg(R8)  returns 0x00000000 (0000ms, 0651ms total)
T0E10 009:949 JLINK_ReadReg(R9)  returns 0x00000000 (0000ms, 0651ms total)
T0E10 009:949 JLINK_ReadReg(R10)  returns 0x00000000 (0001ms, 0652ms total)
T0E10 009:950 JLINK_ReadReg(R11)  returns 0x00000000 (0000ms, 0652ms total)
T0E10 009:950 JLINK_ReadReg(R12)  returns 0x00000000 (0000ms, 0652ms total)
T0E10 009:950 JLINK_ReadReg(R13 (SP))  returns 0x20000490 (0000ms, 0652ms total)
T0E10 009:950 JLINK_ReadReg(R14)  returns 0x08000B57 (0000ms, 0652ms total)
T0E10 009:950 JLINK_ReadReg(R15 (PC))  returns 0x0800212E (0000ms, 0652ms total)
T0E10 009:950 JLINK_ReadReg(XPSR)  returns 0x61000000 (0000ms, 0652ms total)
T0E10 009:950 JLINK_ReadReg(MSP)  returns 0x20000490 (0000ms, 0652ms total)
T0E10 009:950 JLINK_ReadReg(PSP)  returns 0x00000000 (0000ms, 0652ms total)
T0E10 009:950 JLINK_ReadReg(CFBP)  returns 0x00000000 (0000ms, 0652ms total)
T0E10 009:950 JLINK_ReadReg(FPSCR)  returns 0x00000000 (0008ms, 0660ms total)
T0E10 009:958 JLINK_ReadReg(FPS0)  returns 0x00000000 (0000ms, 0660ms total)
T0E10 009:958 JLINK_ReadReg(FPS1)  returns 0x00000000 (0000ms, 0660ms total)
T0E10 009:958 JLINK_ReadReg(FPS2)  returns 0x00000000 (0000ms, 0660ms total)
T0E10 009:958 JLINK_ReadReg(FPS3)  returns 0x00000000 (0000ms, 0660ms total)
T0E10 009:958 JLINK_ReadReg(FPS4)  returns 0x00000000 (0000ms, 0660ms total)
T0E10 009:958 JLINK_ReadReg(FPS5)  returns 0x00000000 (0000ms, 0660ms total)
T0E10 009:958 JLINK_ReadReg(FPS6)  returns 0x00000000 (0000ms, 0660ms total)
T0E10 009:958 JLINK_ReadReg(FPS7)  returns 0x00000000 (0000ms, 0660ms total)
T0E10 009:958 JLINK_ReadReg(FPS8)  returns 0x00000000 (0000ms, 0660ms total)
T0E10 009:958 JLINK_ReadReg(FPS9)  returns 0x00000000 (0000ms, 0660ms total)
T0E10 009:958 JLINK_ReadReg(FPS10)  returns 0x00000000 (0000ms, 0660ms total)
T0E10 009:958 JLINK_ReadReg(FPS11)  returns 0x00000000 (0000ms, 0660ms total)
T0E10 009:958 JLINK_ReadReg(FPS12)  returns 0x00000000 (0000ms, 0660ms total)
T0E10 009:958 JLINK_ReadReg(FPS13)  returns 0x00000000 (0000ms, 0660ms total)
T0E10 009:958 JLINK_ReadReg(FPS14)  returns 0x00000000 (0000ms, 0660ms total)
T0E10 009:959 JLINK_ReadReg(FPS15)  returns 0x00000000 (0000ms, 0661ms total)
T0E10 009:959 JLINK_ReadReg(FPS16)  returns 0x00000000 (0000ms, 0661ms total)
T0E10 009:959 JLINK_ReadReg(FPS17)  returns 0x00000000 (0000ms, 0661ms total)
T0E10 009:959 JLINK_ReadReg(FPS18)  returns 0x00000000 (0000ms, 0661ms total)
T0E10 009:959 JLINK_ReadReg(FPS19)  returns 0x00000000 (0000ms, 0661ms total)
T0E10 009:959 JLINK_ReadReg(FPS20)  returns 0x00000000 (0000ms, 0661ms total)
T0E10 009:959 JLINK_ReadReg(FPS31)  returns 0x00000000 (0000ms, 0661ms total)
T0E10 009:959 JLINK_ReadReg(FPS7)  returns 0x00000000 (0000ms, 0661ms total)
T0E10 009:959 JLINK_ReadReg(FPS8)  returns 0x00000000 (0000ms, 0661ms total)
T0E10 009:959 JLINK_ReadReg(FPS9)  returns 0x00000000 (0000ms, 0661ms total)
T0E10 009:959 JLINK_ReadReg(FPS10)  returns 0x00000000 (0000ms, 0661ms total)
T0E10 009:959 JLINK_ReadReg(FPS11)  returns 0x00000000 (0000ms, 0661ms total)
T0E10 009:959 JLINK_ReadReg(FPS12)  returns 0x00000000 (0000ms, 0661ms total)
T0E10 009:959 JLINK_ReadReg(FPS13)  returns 0x00000000 (0000ms, 0661ms total)
T0E10 009:959 JLINK_ReadReg(FPS14)  returns 0x00000000 (0000ms, 0661ms total)
T0E10 009:959 JLINK_ReadReg(FPS15)  returns 0x00000000 (0000ms, 0661ms total)
T0E10 009:959 JLINK_ReadReg(FPS16)  returns 0x00000000 (0000ms, 0661ms total)
T34C4 009:959 JLINK_ReadMemU32(0xE0001004, 0x0001 Items, ...) -- CPU_ReadMem(4 bytes @ 0xE0001004) -- Data:  B4 08 00 00  returns 0x01 (0001ms, 0662ms total)
T34C4 009:960 JLINK_ReadMem (0x20000018, 0x0004 Bytes, ...) -- CPU_ReadMem(4 bytes @ 0x20000018) -- Data:  00 00 00 00  returns 0x00 (0001ms, 0663ms total)
T34C4 009:961 JLINK_ReadMem (0x2000001C, 0x0004 Bytes, ...) -- CPU_ReadMem(4 bytes @ 0x2000001C) -- Data:  00 00 00 00  returns 0x00 (0001ms, 0664ms total)
T34C4 009:962 JLINK_ReadMem (0x20000020, 0x0004 Bytes, ...) -- CPU_ReadMem(4 bytes @ 0x20000020) -- Data:  00 00 00 00  returns 0x00 (0000ms, 0664ms total)
T34C4 009:962 JLINK_ReadMem (0x20000024, 0x0004 Bytes, ...) -- CPU_ReadMem(4 bytes @ 0x20000024) -- Data:  00 00 00 00  returns 0x00 (0001ms, 0665ms total)
T34C4 009:963 JLINK_ReadMem (0x20000028, 0x0004 Bytes, ...) -- CPU_ReadMem(4 bytes @ 0x20000028) -- Data:  00 00 00 00  returns 0x00 (0001ms, 0666ms total)
T0E10 010:485 JLINK_ReadMem (0x0800212E, 0x0002 Bytes, ...) -- CPU_ReadMem(64 bytes @ 0x08002100) -- Updating DA cache (64 bytes @ 0x08002100) -- Read from DA cache (2 bytes @ 0x0800212E) -- Data:  FF F7  returns 0x00 (0002ms, 0668ms total)
T0E10 010:487 JLINK_ReadMem (0x08002130, 0x003C Bytes, ...) -- CPU_ReadMem(64 bytes @ 0x08002140) -- Updating DA cache (64 bytes @ 0x08002140) -- Read from DA cache (60 bytes @ 0x08002130) -- Data:  65 FB FF F7 EB FA FF F7 FD FA 31 A0 FF F7 D8 FD ...  returns 0x00 (0001ms, 0669ms total)
T0E10 010:488 JLINK_SetBPEx(Addr = 0x08002132, Type = 0xFFFFFFF2)  returns 0x00000007 (0000ms, 0669ms total)
T0E10 010:488 JLINK_SetBPEx(Addr = 0x08002152, Type = 0xFFFFFFF2)  returns 0x00000008 (0000ms, 0669ms total)
T0E10 010:488 JLINK_SetBPEx(Addr = 0x0800214C, Type = 0xFFFFFFF2)  returns 0x00000009 (0000ms, 0669ms total)
T0E10 010:488 JLINK_Go() -- CPU_WriteMem(4 bytes @ 0xE0002000) -- CPU_WriteMem(4 bytes @ 0xE0002000) -- CPU_WriteMem(4 bytes @ 0xE0002000) -- CPU_WriteMem(4 bytes @ 0xE0002008) (0004ms, 0673ms total)
T0E10 010:593 JLINK_IsHalted()  returns TRUE (0003ms, 0676ms total)
T0E10 010:596 JLINK_Halt()  returns 0x00 (0000ms, 0673ms total)
T0E10 010:596 JLINK_IsHalted()  returns TRUE (0000ms, 0673ms total)
T0E10 010:597 JLINK_IsHalted()  returns TRUE (0000ms, 0673ms total)
T0E10 010:597 JLINK_IsHalted()  returns TRUE (0000ms, 0673ms total)
T0E10 010:597 JLINK_ReadReg(R15 (PC))  returns 0x08002132 (0000ms, 0673ms total)
T0E10 010:597 JLINK_ReadReg(XPSR)  returns 0x61000000 (0000ms, 0673ms total)
T0E10 010:597 JLINK_ClrBPEx(BPHandle = 0x00000007)  returns 0x00 (0000ms, 0673ms total)
T0E10 010:597 JLINK_ClrBPEx(BPHandle = 0x00000008)  returns 0x00 (0000ms, 0673ms total)
T0E10 010:597 JLINK_ClrBPEx(BPHandle = 0x00000009)  returns 0x00 (0000ms, 0673ms total)
T0E10 010:597 JLINK_ReadMemU32(0xE000ED30, 0x0001 Items, ...) -- CPU_ReadMem(4 bytes @ 0xE000ED30) -- Data:  03 00 00 00  returns 0x01 (0001ms, 0674ms total)
T0E10 010:598 JLINK_ReadMemU32(0xE0001028, 0x0001 Items, ...) -- CPU_ReadMem(4 bytes @ 0xE0001028) -- Data:  00 00 00 00  returns 0x01 (0000ms, 0674ms total)
T0E10 010:598 JLINK_ReadMemU32(0xE0001038, 0x0001 Items, ...) -- CPU_ReadMem(4 bytes @ 0xE0001038) -- Data:  00 02 00 00  returns 0x01 (0001ms, 0675ms total)
T0E10 010:599 JLINK_ReadMemU32(0xE0001048, 0x0001 Items, ...) -- CPU_ReadMem(4 bytes @ 0xE0001048) -- Data:  00 00 00 00  returns 0x01 (0001ms, 0676ms total)
T0E10 010:600 JLINK_ReadMemU32(0xE0001058, 0x0001 Items, ...) -- CPU_ReadMem(4 bytes @ 0xE0001058) -- Data:  00 00 00 00  returns 0x01 (0001ms, 0677ms total)
T0E10 010:601 JLINK_ReadReg(R0)  returns 0x00000000 (0000ms, 0677ms total)
T0E10 010:601 JLINK_ReadReg(R1)  returns 0x00000000 (0000ms, 0677ms total)
T0E10 010:601 JLINK_ReadReg(R2)  returns 0xE000ED18 (0000ms, 0677ms total)
T0E10 010:601 JLINK_ReadReg(R3)  returns 0x0000000B (0000ms, 0677ms total)
T0E10 010:601 JLINK_ReadReg(R4)  returns 0x00000000 (0000ms, 0677ms total)
T0E10 010:601 JLINK_ReadReg(R5)  returns 0x080023BC (0000ms, 0677ms total)
T0E10 010:601 JLINK_ReadReg(R6)  returns 0x00000000 (0000ms, 0677ms total)
T0E10 010:601 JLINK_ReadReg(R7)  returns 0x00000000 (0000ms, 0677ms total)
T0E10 010:601 JLINK_ReadReg(R8)  returns 0x00000000 (0000ms, 0677ms total)
T0E10 010:601 JLINK_ReadReg(R9)  returns 0x00000000 (0000ms, 0677ms total)
T0E10 010:601 JLINK_ReadReg(R10)  returns 0x00000000 (0000ms, 0677ms total)
T0E10 010:601 JLINK_ReadReg(R11)  returns 0x00000000 (0000ms, 0677ms total)
T0E10 010:601 JLINK_ReadReg(R12)  returns 0x00000000 (0000ms, 0677ms total)
T0E10 010:601 JLINK_ReadReg(R13 (SP))  returns 0x20000490 (0000ms, 0677ms total)
T0E10 010:601 JLINK_ReadReg(R14)  returns 0x08000C6D (0000ms, 0677ms total)
T0E10 010:601 JLINK_ReadReg(R15 (PC))  returns 0x08002132 (0000ms, 0677ms total)
T0E10 010:601 JLINK_ReadReg(XPSR)  returns 0x61000000 (0000ms, 0677ms total)
T0E10 010:601 JLINK_ReadReg(MSP)  returns 0x20000490 (0000ms, 0677ms total)
T0E10 010:601 JLINK_ReadReg(PSP)  returns 0x00000000 (0000ms, 0677ms total)
T0E10 010:601 JLINK_ReadReg(CFBP)  returns 0x00000000 (0000ms, 0677ms total)
T0E10 010:601 JLINK_ReadReg(FPSCR)  returns 0x00000000 (0006ms, 0683ms total)
T0E10 010:607 JLINK_ReadReg(FPS0)  returns 0x00000000 (0000ms, 0683ms total)
T0E10 010:607 JLINK_ReadReg(FPS1)  returns 0x00000000 (0000ms, 0683ms total)
T0E10 010:607 JLINK_ReadReg(FPS2)  returns 0x00000000 (0000ms, 0683ms total)
T0E10 010:607 JLINK_ReadReg(FPS3)  returns 0x00000000 (0000ms, 0683ms total)
T0E10 010:607 JLINK_ReadReg(FPS4)  returns 0x00000000 (0000ms, 0683ms total)
T0E10 010:608 JLINK_ReadReg(FPS5)  returns 0x00000000 (0000ms, 0683ms total)
T0E10 010:608 JLINK_ReadReg(FPS6)  returns 0x00000000 (0000ms, 0683ms total)
T0E10 010:608 JLINK_ReadReg(FPS7)  returns 0x00000000 (0000ms, 0683ms total)
T0E10 010:608 JLINK_ReadReg(FPS8)  returns 0x00000000 (0000ms, 0683ms total)
T0E10 010:608 JLINK_ReadReg(FPS9)  returns 0x00000000 (0000ms, 0683ms total)
T0E10 010:608 JLINK_ReadReg(FPS10)  returns 0x00000000 (0000ms, 0683ms total)
T0E10 010:608 JLINK_ReadReg(FPS11)  returns 0x00000000 (0000ms, 0683ms total)
T0E10 010:608 JLINK_ReadReg(FPS12)  returns 0x00000000 (0000ms, 0683ms total)
T0E10 010:608 JLINK_ReadReg(FPS13)  returns 0x00000000 (0000ms, 0683ms total)
T0E10 010:608 JLINK_ReadReg(FPS14)  returns 0x00000000 (0000ms, 0683ms total)
T0E10 010:608 JLINK_ReadReg(FPS15)  returns 0x00000000 (0000ms, 0683ms total)
T0E10 010:608 JLINK_ReadReg(FPS16)  returns 0x00000000 (0000ms, 0683ms total)
T0E10 010:608 JLINK_ReadReg(FPS17)  returns 0x00000000 (0000ms, 0683ms total)
T0E10 010:608 JLINK_ReadReg(FPS18)  returns 0x00000000 (0000ms, 0683ms total)
T0E10 010:608 JLINK_ReadReg(FPS19)  returns 0x00000000 (0000ms, 0683ms total)
T0E10 010:608 JLINK_ReadReg(FPS20)  returns 0x00000000 (0000ms, 0683ms total)
T0E10 010:608 JLINK_ReadReg(FPS31)  returns 0x00000000 (0000ms, 0683ms total)
T0E10 010:608 JLINK_ReadReg(FPS7)  returns 0x00000000 (0000ms, 0683ms total)
T0E10 010:608 JLINK_ReadReg(FPS8)  returns 0x00000000 (0000ms, 0683ms total)
T0E10 010:608 JLINK_ReadReg(FPS9)  returns 0x00000000 (0000ms, 0683ms total)
T0E10 010:608 JLINK_ReadReg(FPS10)  returns 0x00000000 (0000ms, 0683ms total)
T0E10 010:608 JLINK_ReadReg(FPS11)  returns 0x00000000 (0000ms, 0683ms total)
T0E10 010:608 JLINK_ReadReg(FPS12)  returns 0x00000000 (0000ms, 0683ms total)
T0E10 010:608 JLINK_ReadReg(FPS13)  returns 0x00000000 (0000ms, 0683ms total)
T0E10 010:608 JLINK_ReadReg(FPS14)  returns 0x00000000 (0000ms, 0683ms total)
T0E10 010:608 JLINK_ReadReg(FPS15)  returns 0x00000000 (0000ms, 0683ms total)
T0E10 010:608 JLINK_ReadReg(FPS16)  returns 0x00000000 (0000ms, 0683ms total)
T34C4 010:609 JLINK_ReadMemU32(0xE0001004, 0x0001 Items, ...) -- CPU_ReadMem(4 bytes @ 0xE0001004) -- Data:  02 1C 00 00  returns 0x01 (0000ms, 0683ms total)
T34C4 010:610 JLINK_ReadMem (0x20000018, 0x0004 Bytes, ...) -- CPU_ReadMem(4 bytes @ 0x20000018) -- Data:  00 00 00 00  returns 0x00 (0000ms, 0683ms total)
T34C4 010:610 JLINK_ReadMem (0x2000001C, 0x0004 Bytes, ...) -- CPU_ReadMem(4 bytes @ 0x2000001C) -- Data:  00 00 00 00  returns 0x00 (0001ms, 0684ms total)
T34C4 010:611 JLINK_ReadMem (0x20000020, 0x0004 Bytes, ...) -- CPU_ReadMem(4 bytes @ 0x20000020) -- Data:  00 00 00 00  returns 0x00 (0001ms, 0685ms total)
T34C4 010:612 JLINK_ReadMem (0x20000024, 0x0004 Bytes, ...) -- CPU_ReadMem(4 bytes @ 0x20000024) -- Data:  00 00 00 00  returns 0x00 (0001ms, 0686ms total)
T34C4 010:613 JLINK_ReadMem (0x20000028, 0x0004 Bytes, ...) -- CPU_ReadMem(4 bytes @ 0x20000028) -- Data:  00 00 00 00  returns 0x00 (0000ms, 0686ms total)
T34C4 010:615 JLINK_ReadMem (0x08002132, 0x0002 Bytes, ...) -- CPU_ReadMem(64 bytes @ 0x08002100) -- Updating DA cache (64 bytes @ 0x08002100) -- Read from DA cache (2 bytes @ 0x08002132) -- Data:  FF F7  returns 0x00 (0001ms, 0687ms total)
T34C4 010:616 JLINK_ReadMem (0x08002134, 0x003C Bytes, ...) -- CPU_ReadMem(64 bytes @ 0x08002140) -- Updating DA cache (64 bytes @ 0x08002140) -- Read from DA cache (60 bytes @ 0x08002134) -- Data:  EB FA FF F7 FD FA 31 A0 FF F7 D8 FD 35 A0 FF F7 ...  returns 0x00 (0002ms, 0689ms total)
T0E10 011:107 JLINK_SetBPEx(Addr = 0x08002136, Type = 0xFFFFFFF2)  returns 0x0000000A (0000ms, 0689ms total)
T0E10 011:107 JLINK_SetBPEx(Addr = 0x08002152, Type = 0xFFFFFFF2)  returns 0x0000000B (0000ms, 0689ms total)
T0E10 011:107 JLINK_SetBPEx(Addr = 0x0800214C, Type = 0xFFFFFFF2)  returns 0x0000000C (0000ms, 0689ms total)
T0E10 011:107 JLINK_Go() -- CPU_WriteMem(4 bytes @ 0xE0002000) -- CPU_WriteMem(4 bytes @ 0xE0002000) -- CPU_WriteMem(4 bytes @ 0xE0002000) -- CPU_WriteMem(4 bytes @ 0xE0002008) (0004ms, 0693ms total)
T0E10 011:212 JLINK_IsHalted()  returns TRUE (0003ms, 0696ms total)
T0E10 011:215 JLINK_Halt()  returns 0x00 (0000ms, 0693ms total)
T0E10 011:215 JLINK_IsHalted()  returns TRUE (0001ms, 0694ms total)
T0E10 011:216 JLINK_IsHalted()  returns TRUE (0000ms, 0693ms total)
T0E10 011:216 JLINK_IsHalted()  returns TRUE (0000ms, 0693ms total)
T0E10 011:216 JLINK_ReadReg(R15 (PC))  returns 0x08002136 (0000ms, 0693ms total)
T0E10 011:216 JLINK_ReadReg(XPSR)  returns 0x61000000 (0000ms, 0693ms total)
T0E10 011:216 JLINK_ClrBPEx(BPHandle = 0x0000000A)  returns 0x00 (0000ms, 0693ms total)
T0E10 011:216 JLINK_ClrBPEx(BPHandle = 0x0000000B)  returns 0x00 (0000ms, 0693ms total)
T0E10 011:216 JLINK_ClrBPEx(BPHandle = 0x0000000C)  returns 0x00 (0000ms, 0693ms total)
T0E10 011:216 JLINK_ReadMemU32(0xE000ED30, 0x0001 Items, ...) -- CPU_ReadMem(4 bytes @ 0xE000ED30) -- Data:  03 00 00 00  returns 0x01 (0001ms, 0694ms total)
T0E10 011:217 JLINK_ReadMemU32(0xE0001028, 0x0001 Items, ...) -- CPU_ReadMem(4 bytes @ 0xE0001028) -- Data:  00 00 00 00  returns 0x01 (0000ms, 0694ms total)
T0E10 011:217 JLINK_ReadMemU32(0xE0001038, 0x0001 Items, ...) -- CPU_ReadMem(4 bytes @ 0xE0001038) -- Data:  00 02 00 00  returns 0x01 (0001ms, 0695ms total)
T0E10 011:218 JLINK_ReadMemU32(0xE0001048, 0x0001 Items, ...) -- CPU_ReadMem(4 bytes @ 0xE0001048) -- Data:  00 00 00 00  returns 0x01 (0001ms, 0696ms total)
T0E10 011:219 JLINK_ReadMemU32(0xE0001058, 0x0001 Items, ...) -- CPU_ReadMem(4 bytes @ 0xE0001058) -- Data:  00 00 00 00  returns 0x01 (0001ms, 0697ms total)
T0E10 011:220 JLINK_ReadReg(R0)  returns 0x00000001 (0000ms, 0697ms total)
T0E10 011:220 JLINK_ReadReg(R1)  returns 0x40023830 (0000ms, 0697ms total)
T0E10 011:220 JLINK_ReadReg(R2)  returns 0xE000ED18 (0000ms, 0697ms total)
T0E10 011:220 JLINK_ReadReg(R3)  returns 0x00000001 (0000ms, 0697ms total)
T0E10 011:220 JLINK_ReadReg(R4)  returns 0x00000000 (0000ms, 0697ms total)
T0E10 011:220 JLINK_ReadReg(R5)  returns 0x080023BC (0000ms, 0697ms total)
T0E10 011:220 JLINK_ReadReg(R6)  returns 0x00000000 (0000ms, 0697ms total)
T0E10 011:220 JLINK_ReadReg(R7)  returns 0x00000000 (0000ms, 0697ms total)
T0E10 011:220 JLINK_ReadReg(R8)  returns 0x00000000 (0000ms, 0697ms total)
T0E10 011:220 JLINK_ReadReg(R9)  returns 0x00000000 (0000ms, 0697ms total)
T0E10 011:220 JLINK_ReadReg(R10)  returns 0x00000000 (0000ms, 0697ms total)
T0E10 011:220 JLINK_ReadReg(R11)  returns 0x00000000 (0000ms, 0697ms total)
T0E10 011:220 JLINK_ReadReg(R12)  returns 0x00000000 (0000ms, 0697ms total)
T0E10 011:220 JLINK_ReadReg(R13 (SP))  returns 0x20000490 (0000ms, 0697ms total)
T0E10 011:220 JLINK_ReadReg(R14)  returns 0x08002137 (0000ms, 0697ms total)
T0E10 011:220 JLINK_ReadReg(R15 (PC))  returns 0x08002136 (0000ms, 0697ms total)
T0E10 011:220 JLINK_ReadReg(XPSR)  returns 0x61000000 (0000ms, 0697ms total)
T0E10 011:220 JLINK_ReadReg(MSP)  returns 0x20000490 (0000ms, 0697ms total)
T0E10 011:220 JLINK_ReadReg(PSP)  returns 0x00000000 (0000ms, 0697ms total)
T0E10 011:220 JLINK_ReadReg(CFBP)  returns 0x00000000 (0000ms, 0697ms total)
T0E10 011:220 JLINK_ReadReg(FPSCR)  returns 0x00000000 (0006ms, 0703ms total)
T0E10 011:226 JLINK_ReadReg(FPS0)  returns 0x00000000 (0000ms, 0703ms total)
T0E10 011:226 JLINK_ReadReg(FPS1)  returns 0x00000000 (0000ms, 0703ms total)
T0E10 011:226 JLINK_ReadReg(FPS2)  returns 0x00000000 (0000ms, 0703ms total)
T0E10 011:226 JLINK_ReadReg(FPS3)  returns 0x00000000 (0000ms, 0703ms total)
T0E10 011:226 JLINK_ReadReg(FPS4)  returns 0x00000000 (0000ms, 0703ms total)
T0E10 011:226 JLINK_ReadReg(FPS5)  returns 0x00000000 (0000ms, 0703ms total)
T0E10 011:226 JLINK_ReadReg(FPS6)  returns 0x00000000 (0000ms, 0703ms total)
T0E10 011:226 JLINK_ReadReg(FPS7)  returns 0x00000000 (0000ms, 0703ms total)
T0E10 011:226 JLINK_ReadReg(FPS8)  returns 0x00000000 (0000ms, 0703ms total)
T0E10 011:226 JLINK_ReadReg(FPS9)  returns 0x00000000 (0000ms, 0703ms total)
T0E10 011:226 JLINK_ReadReg(FPS10)  returns 0x00000000 (0000ms, 0703ms total)
T0E10 011:226 JLINK_ReadReg(FPS11)  returns 0x00000000 (0001ms, 0704ms total)
T0E10 011:227 JLINK_ReadReg(FPS12)  returns 0x00000000 (0000ms, 0704ms total)
T0E10 011:227 JLINK_ReadReg(FPS13)  returns 0x00000000 (0000ms, 0704ms total)
T0E10 011:227 JLINK_ReadReg(FPS14)  returns 0x00000000 (0000ms, 0704ms total)
T0E10 011:227 JLINK_ReadReg(FPS15)  returns 0x00000000 (0000ms, 0704ms total)
T0E10 011:227 JLINK_ReadReg(FPS16)  returns 0x00000000 (0000ms, 0704ms total)
T0E10 011:227 JLINK_ReadReg(FPS17)  returns 0x00000000 (0000ms, 0704ms total)
T0E10 011:227 JLINK_ReadReg(FPS18)  returns 0x00000000 (0000ms, 0704ms total)
T0E10 011:227 JLINK_ReadReg(FPS19)  returns 0x00000000 (0000ms, 0704ms total)
T0E10 011:227 JLINK_ReadReg(FPS20)  returns 0x00000000 (0000ms, 0704ms total)
T0E10 011:227 JLINK_ReadReg(FPS31)  returns 0x00000000 (0000ms, 0704ms total)
T0E10 011:227 JLINK_ReadReg(FPS7)  returns 0x00000000 (0000ms, 0704ms total)
T0E10 011:227 JLINK_ReadReg(FPS8)  returns 0x00000000 (0000ms, 0704ms total)
T0E10 011:227 JLINK_ReadReg(FPS9)  returns 0x00000000 (0000ms, 0704ms total)
T0E10 011:227 JLINK_ReadReg(FPS10)  returns 0x00000000 (0000ms, 0704ms total)
T0E10 011:227 JLINK_ReadReg(FPS11)  returns 0x00000000 (0000ms, 0704ms total)
T0E10 011:227 JLINK_ReadReg(FPS12)  returns 0x00000000 (0000ms, 0704ms total)
T0E10 011:227 JLINK_ReadReg(FPS13)  returns 0x00000000 (0000ms, 0704ms total)
T0E10 011:227 JLINK_ReadReg(FPS14)  returns 0x00000000 (0000ms, 0704ms total)
T0E10 011:227 JLINK_ReadReg(FPS15)  returns 0x00000000 (0000ms, 0704ms total)
T0E10 011:227 JLINK_ReadReg(FPS16)  returns 0x00000000 (0000ms, 0704ms total)
T34C4 011:227 JLINK_ReadMemU32(0xE0001004, 0x0001 Items, ...) -- CPU_ReadMem(4 bytes @ 0xE0001004) -- Data:  2F 1C 00 00  returns 0x01 (0001ms, 0705ms total)
T34C4 011:228 JLINK_ReadMem (0x20000018, 0x0004 Bytes, ...) -- CPU_ReadMem(4 bytes @ 0x20000018) -- Data:  00 00 00 00  returns 0x00 (0001ms, 0706ms total)
T34C4 011:229 JLINK_ReadMem (0x2000001C, 0x0004 Bytes, ...) -- CPU_ReadMem(4 bytes @ 0x2000001C) -- Data:  00 00 00 00  returns 0x00 (0001ms, 0707ms total)
T34C4 011:230 JLINK_ReadMem (0x20000020, 0x0004 Bytes, ...) -- CPU_ReadMem(4 bytes @ 0x20000020) -- Data:  00 00 00 00  returns 0x00 (0001ms, 0708ms total)
T34C4 011:231 JLINK_ReadMem (0x20000024, 0x0004 Bytes, ...) -- CPU_ReadMem(4 bytes @ 0x20000024) -- Data:  00 00 00 00  returns 0x00 (0000ms, 0708ms total)
T34C4 011:231 JLINK_ReadMem (0x20000028, 0x0004 Bytes, ...) -- CPU_ReadMem(4 bytes @ 0x20000028) -- Data:  00 00 00 00  returns 0x00 (0001ms, 0709ms total)
T34C4 011:234 JLINK_ReadMem (0x08002136, 0x0002 Bytes, ...) -- CPU_ReadMem(64 bytes @ 0x08002100) -- Updating DA cache (64 bytes @ 0x08002100) -- Read from DA cache (2 bytes @ 0x08002136) -- Data:  FF F7  returns 0x00 (0001ms, 0710ms total)
T34C4 011:235 JLINK_ReadMem (0x08002138, 0x003C Bytes, ...) -- CPU_ReadMem(64 bytes @ 0x08002140) -- Updating DA cache (64 bytes @ 0x08002140) -- Read from DA cache (60 bytes @ 0x08002138) -- Data:  FD FA 31 A0 FF F7 D8 FD 35 A0 FF F7 D5 FD 39 A0 ...  returns 0x00 (0002ms, 0712ms total)
T0E10 011:543 JLINK_SetBPEx(Addr = 0x0800213A, Type = 0xFFFFFFF2)  returns 0x0000000D (0000ms, 0712ms total)
T0E10 011:543 JLINK_SetBPEx(Addr = 0x08002152, Type = 0xFFFFFFF2)  returns 0x0000000E (0000ms, 0712ms total)
T0E10 011:543 JLINK_SetBPEx(Addr = 0x0800214C, Type = 0xFFFFFFF2)  returns 0x0000000F (0000ms, 0712ms total)
T0E10 011:543 JLINK_Go() -- CPU_WriteMem(4 bytes @ 0xE0002000) -- CPU_WriteMem(4 bytes @ 0xE0002000) -- CPU_WriteMem(4 bytes @ 0xE0002000) -- CPU_WriteMem(4 bytes @ 0xE0002008) (0003ms, 0715ms total)
T0E10 011:647 JLINK_IsHalted()  returns TRUE (0003ms, 0718ms total)
T0E10 011:650 JLINK_Halt()  returns 0x00 (0000ms, 0715ms total)
T0E10 011:650 JLINK_IsHalted()  returns TRUE (0000ms, 0715ms total)
T0E10 011:650 JLINK_IsHalted()  returns TRUE (0000ms, 0715ms total)
T0E10 011:650 JLINK_IsHalted()  returns TRUE (0000ms, 0715ms total)
T0E10 011:650 JLINK_ReadReg(R15 (PC))  returns 0x0800213A (0000ms, 0715ms total)
T0E10 011:651 JLINK_ReadReg(XPSR)  returns 0x41000000 (0000ms, 0715ms total)
T0E10 011:651 JLINK_ClrBPEx(BPHandle = 0x0000000D)  returns 0x00 (0000ms, 0715ms total)
T0E10 011:651 JLINK_ClrBPEx(BPHandle = 0x0000000E)  returns 0x00 (0000ms, 0715ms total)
T0E10 011:651 JLINK_ClrBPEx(BPHandle = 0x0000000F)  returns 0x00 (0000ms, 0715ms total)
T0E10 011:651 JLINK_ReadMemU32(0xE000ED30, 0x0001 Items, ...) -- CPU_ReadMem(4 bytes @ 0xE000ED30) -- Data:  03 00 00 00  returns 0x01 (0000ms, 0715ms total)
T0E10 011:651 JLINK_ReadMemU32(0xE0001028, 0x0001 Items, ...) -- CPU_ReadMem(4 bytes @ 0xE0001028) -- Data:  00 00 00 00  returns 0x01 (0001ms, 0716ms total)
T0E10 011:652 JLINK_ReadMemU32(0xE0001038, 0x0001 Items, ...) -- CPU_ReadMem(4 bytes @ 0xE0001038) -- Data:  00 02 00 00  returns 0x01 (0001ms, 0717ms total)
T0E10 011:653 JLINK_ReadMemU32(0xE0001048, 0x0001 Items, ...) -- CPU_ReadMem(4 bytes @ 0xE0001048) -- Data:  00 00 00 00  returns 0x01 (0001ms, 0718ms total)
T0E10 011:654 JLINK_ReadMemU32(0xE0001058, 0x0001 Items, ...) -- CPU_ReadMem(4 bytes @ 0xE0001058) -- Data:  00 00 00 00  returns 0x01 (0000ms, 0718ms total)
T0E10 011:654 JLINK_ReadReg(R0)  returns 0x00000000 (0001ms, 0719ms total)
T0E10 011:655 JLINK_ReadReg(R1)  returns 0x40004400 (0000ms, 0719ms total)
T0E10 011:655 JLINK_ReadReg(R2)  returns 0x08002394 (0000ms, 0719ms total)
T0E10 011:655 JLINK_ReadReg(R3)  returns 0x00000001 (0000ms, 0719ms total)
T0E10 011:655 JLINK_ReadReg(R4)  returns 0x00000000 (0000ms, 0719ms total)
T0E10 011:655 JLINK_ReadReg(R5)  returns 0x080023BC (0000ms, 0719ms total)
T0E10 011:655 JLINK_ReadReg(R6)  returns 0x00000000 (0000ms, 0719ms total)
T0E10 011:655 JLINK_ReadReg(R7)  returns 0x00000000 (0000ms, 0719ms total)
T0E10 011:655 JLINK_ReadReg(R8)  returns 0x00000000 (0000ms, 0719ms total)
T0E10 011:655 JLINK_ReadReg(R9)  returns 0x00000000 (0000ms, 0719ms total)
T0E10 011:655 JLINK_ReadReg(R10)  returns 0x00000000 (0000ms, 0719ms total)
T0E10 011:655 JLINK_ReadReg(R11)  returns 0x00000000 (0000ms, 0719ms total)
T0E10 011:655 JLINK_ReadReg(R12)  returns 0x00000000 (0000ms, 0719ms total)
T0E10 011:655 JLINK_ReadReg(R13 (SP))  returns 0x20000490 (0000ms, 0719ms total)
T0E10 011:655 JLINK_ReadReg(R14)  returns 0x08000FA3 (0000ms, 0719ms total)
T0E10 011:655 JLINK_ReadReg(R15 (PC))  returns 0x0800213A (0000ms, 0719ms total)
T0E10 011:655 JLINK_ReadReg(XPSR)  returns 0x41000000 (0000ms, 0719ms total)
T0E10 011:655 JLINK_ReadReg(MSP)  returns 0x20000490 (0000ms, 0719ms total)
T0E10 011:655 JLINK_ReadReg(PSP)  returns 0x00000000 (0000ms, 0719ms total)
T0E10 011:655 JLINK_ReadReg(CFBP)  returns 0x00000000 (0000ms, 0719ms total)
T0E10 011:655 JLINK_ReadReg(FPSCR)  returns 0x00000000 (0006ms, 0725ms total)
T0E10 011:661 JLINK_ReadReg(FPS0)  returns 0x00000000 (0000ms, 0725ms total)
T0E10 011:661 JLINK_ReadReg(FPS1)  returns 0x00000000 (0000ms, 0725ms total)
T0E10 011:661 JLINK_ReadReg(FPS2)  returns 0x00000000 (0000ms, 0725ms total)
T0E10 011:661 JLINK_ReadReg(FPS3)  returns 0x00000000 (0000ms, 0725ms total)
T0E10 011:661 JLINK_ReadReg(FPS4)  returns 0x00000000 (0000ms, 0725ms total)
T0E10 011:661 JLINK_ReadReg(FPS5)  returns 0x00000000 (0000ms, 0725ms total)
T0E10 011:661 JLINK_ReadReg(FPS6)  returns 0x00000000 (0000ms, 0725ms total)
T0E10 011:661 JLINK_ReadReg(FPS7)  returns 0x00000000 (0000ms, 0725ms total)
T0E10 011:661 JLINK_ReadReg(FPS8)  returns 0x00000000 (0000ms, 0725ms total)
T0E10 011:661 JLINK_ReadReg(FPS9)  returns 0x00000000 (0000ms, 0725ms total)
T0E10 011:661 JLINK_ReadReg(FPS10)  returns 0x00000000 (0000ms, 0725ms total)
T0E10 011:661 JLINK_ReadReg(FPS11)  returns 0x00000000 (0001ms, 0726ms total)
T0E10 011:662 JLINK_ReadReg(FPS12)  returns 0x00000000 (0000ms, 0726ms total)
T0E10 011:662 JLINK_ReadReg(FPS13)  returns 0x00000000 (0000ms, 0726ms total)
T0E10 011:662 JLINK_ReadReg(FPS14)  returns 0x00000000 (0000ms, 0726ms total)
T0E10 011:662 JLINK_ReadReg(FPS15)  returns 0x00000000 (0000ms, 0726ms total)
T0E10 011:662 JLINK_ReadReg(FPS16)  returns 0x00000000 (0000ms, 0726ms total)
T0E10 011:662 JLINK_ReadReg(FPS17)  returns 0x00000000 (0000ms, 0726ms total)
T0E10 011:662 JLINK_ReadReg(FPS18)  returns 0x00000000 (0000ms, 0726ms total)
T0E10 011:662 JLINK_ReadReg(FPS19)  returns 0x00000000 (0000ms, 0726ms total)
T0E10 011:662 JLINK_ReadReg(FPS20)  returns 0x00000000 (0000ms, 0726ms total)
T0E10 011:662 JLINK_ReadReg(FPS31)  returns 0x00000000 (0000ms, 0726ms total)
T0E10 011:662 JLINK_ReadReg(FPS7)  returns 0x00000000 (0000ms, 0726ms total)
T0E10 011:662 JLINK_ReadReg(FPS8)  returns 0x00000000 (0000ms, 0726ms total)
T0E10 011:662 JLINK_ReadReg(FPS9)  returns 0x00000000 (0000ms, 0726ms total)
T0E10 011:662 JLINK_ReadReg(FPS10)  returns 0x00000000 (0000ms, 0726ms total)
T0E10 011:662 JLINK_ReadReg(FPS11)  returns 0x00000000 (0000ms, 0726ms total)
T0E10 011:662 JLINK_ReadReg(FPS12)  returns 0x00000000 (0000ms, 0726ms total)
T0E10 011:662 JLINK_ReadReg(FPS13)  returns 0x00000000 (0000ms, 0726ms total)
T0E10 011:662 JLINK_ReadReg(FPS14)  returns 0x00000000 (0000ms, 0726ms total)
T0E10 011:662 JLINK_ReadReg(FPS15)  returns 0x00000000 (0000ms, 0726ms total)
T0E10 011:662 JLINK_ReadReg(FPS16)  returns 0x00000000 (0000ms, 0726ms total)
T34C4 011:662 JLINK_ReadMemU32(0xE0001004, 0x0001 Items, ...) -- CPU_ReadMem(4 bytes @ 0xE0001004) -- Data:  98 22 00 00  returns 0x01 (0001ms, 0727ms total)
T34C4 011:663 JLINK_ReadMem (0x20000018, 0x0004 Bytes, ...) -- CPU_ReadMem(4 bytes @ 0x20000018) -- Data:  00 00 00 00  returns 0x00 (0001ms, 0728ms total)
T34C4 011:664 JLINK_ReadMem (0x2000001C, 0x0004 Bytes, ...) -- CPU_ReadMem(4 bytes @ 0x2000001C) -- Data:  00 00 00 00  returns 0x00 (0001ms, 0729ms total)
T34C4 011:665 JLINK_ReadMem (0x20000020, 0x0004 Bytes, ...) -- CPU_ReadMem(4 bytes @ 0x20000020) -- Data:  00 00 00 00  returns 0x00 (0001ms, 0730ms total)
